!CSV A.01.01
!Keysight Technologies,N5242B,MY58422168,A.13.50.09
!Date: Friday, July 09, 2021 19:34:06
!Source: Standard

BEGIN CH1_DATA
Freq(Hz),Sdd11(DB),Sdd11(DEG),Sdd12(DB),Sdd12(DEG),Sdc11(DB),Sdc11(DEG),Sdc12(DB),Sdc12(DEG),Sdd21(DB),Sdd21(DEG),Sdd22(DB),Sdd22(DEG),Sdc21(DB),Sdc21(DEG),Sdc22(DB),Sdc22(DEG),Scd11(DB),Scd11(DEG),Scd12(DB),Scd12(DEG),Scc11(DB),Scc11(DEG),Scc12(DB),Scc12(DEG),Scd21(DB),Scd21(DEG),Scd22(DB),Scd22(DEG),Scc21(DB),Scc21(DEG),Scc22(DB),Scc22(DEG)
100000000,-12.083048,-55.496246,-42.20615,-78.922745,-55.357819,12.456906,-69.422882,-15.012422,23.769365,164.67305,-3.3719046,-164.91417,-27.01293,-117.66546,-37.69286,165.46776,-22.805395,16.960478,-38.934948,-117.25577,-1.2416118,-3.6962509,-38.827953,-7.6963573,-0.69917119,-10.585465,-14.334773,-146.41234,-15.784756,178.69263,-7.2314534,-168.23764
105000000,-12.269727,-56.876877,-43.648193,-77.838455,-56.226101,2.0212739,-71.037354,-104.34315,23.733624,165.18124,-3.513562,-166.43779,-28.723162,-113.29745,-37.408051,173.87967,-22.768141,15.576414,-38.850105,-121.9437,-1.2537223,-3.727402,-38.60236,2.1194909,-0.63316804,-12.835825,-14.232501,-147.25832,-16.271561,177.02953,-7.4000998,-170.5107
110000000,-12.429446,-57.169342,-43.380669,-71.134819,-59.750301,15.590322,-68.600174,108.12831,23.657433,165.57933,-3.5756767,-166.13092,-30.202364,-114.14606,-34.963085,154.74597,-22.541706,10.218212,-37.458767,-126.47016,-1.2699791,-3.6287839,-38.253246,5.8395982,-0.31372303,-17.732895,-13.567372,-151.04938,-16.664198,176.44408,-7.5999069,-172.20219
115000000,-12.572902,-58.129078,-44.797836,-74.701759,-53.803524,18.098145,-67.345634,172.61534,23.620155,166.12808,-3.5960832,-167.73973,-31.004927,-113.02648,-37.409966,145.44978,-22.416924,7.1596026,-37.302162,-125.15494,-1.2881392,-3.5917699,-37.667366,9.7459583,-0.22872451,-19.606264,-13.5678,-150.96942,-17.206936,175.64278,-7.809916,-174.38219
120000000,-12.737557,-59.142902,-45.31176,-75.070969,-58.002125,23.842854,-65.04142,171.15782,23.587942,166.58348,-3.6529925,-168.77095,-28.520185,-110.58414,-37.969246,154.00139,-22.342144,4.3994942,-36.869106,-129.19896,-1.2798014,-3.4750128,-37.696373,9.5461979,-0.10093065,-23.023939,-13.121016,-153.2563,-17.938868,173.94255,-7.9942241,-175.13419
125000000,-12.859426,-60.291336,-45.158051,-79.12455,-53.433674,-0.83167779,-61.287914,57.564903,23.562824,166.95192,-3.7495718,-169.1501,-27.829782,-103.29325,-36.908558,146.1595,-22.095121,3.0709162,-37.800255,-131.4294,-1.276173,-3.4799283,-37.391884,8.0898008,-0.14284106,-24.634535,-13.081899,-155.20412,-18.871254,173.31213,-8.1858778,-174.77341
130000000,-12.975348,-60.918526,-46.853756,-74.963005,-60.519524,-39.203247,-64.110809,79.462631,23.515884,167.39182,-3.7063987,-170.18861,-28.656092,-109.12657,-37.697147,162.79498,-21.305447,0.82987577,-36.607208,-135.35455,-1.2974067,-3.406698,-38.042175,10.137956,0.96044439,-26.612635,-12.198226,-156.15491,-19.33519,174.36674,-7.7569957,-176.31398
135000000,-13.112784,-61.988319,-48.446892,-76.575661,-58.0798,11.954144,-89.969841,165.95573,23.49374,167.74445,-3.791292,-171.5629,-28.745651,-118.63082,-35.72805,165.0883,-21.024481,-5.8070846,-36.02438,-137.99786,-1.2902027,-3.4089563,-38.201099,16.349506,1.2115761,-32.884518,-11.730894,-160.99547,-20.641653,171.85196,-7.8398981,179.89453
140000000,-13.326144,-62.224552,-47.547184,-59.422249,-61.275867,13.839579,-55.092381,168.18452,23.461334,167.75311,-4.2502723,-171.12775,-28.294424,-135.75026,-26.788221,167.84396,-21.03141,-14.362616,-34.822315,-151.4568,-1.2981514,-3.2834361,-35.903839,18.964468,1.6918952,-43.161575,-10.647029,-169.95667,-23.178646,176.59282,-9.0431662,179.0912
145000000,-13.327257,-62.991127,-46.848724,-65.677887,-60.763241,16.599823,-58.692589,150.75584,23.436939,168.30353,-3.869678,-171.42082,-28.176958,-173.7746,-31.085127,121.33674,-21.089956,-23.766987,-36.179031,-154.53818,-1.2886918,-3.4067166,-35.98938,17.538286,1.5225025,-52.898903,-12.248455,-177.42302,-24.107983,-155.69243,-8.5463905,-179.65588
150000000,-13.392163,-63.047565,-49.323204,-73.66861,-61.996601,34.079391,-66.992149,68.718468,23.368956,168.67915,-3.8651428,-171.04771,-29.818756,-106.40832,-37.650261,121.56084,-23.400362,-23.921257,-37.970207,-162.92566,-1.3072156,-3.5091341,-36.634262,20.156073,-0.83150715,-55.971001,-13.357516,-179.81589,-22.755602,-160.24707,-8.515233,178.27534
155000000,-13.356722,-64.512566,-47.691719,-63.946362,-61.831024,11.7587,-70.366539,116.88034,23.368631,169.14183,-3.8150327,-172.77789,-28.273338,-158.12286,-34.538837,126.85542,-23.265493,-23.058683,-37.151733,-161.36722,-1.313262,-3.4796159,-36.273376,15.519915,-0.90380716,-53.448391,-13.266292,-177.60802,-23.232416,-152.87469,-8.5962515,-179.7446
160000000,-13.429826,-66.112915,-48.832989,-90.336121,-54.685902,4.1010075,-60.751671,84.272949,23.356907,169.53574,-3.7868686,-173.54173,-28.014658,-139.32875,-33.758846,121.03994,-23.062998,-14.31916,-38.281593,-155.94948,-1.3275601,-3.3847888,-37.739773,13.874506,-0.92657721,-44.641968,-14.560035,-173.92836,-22.611488,-157.44637,-7.8524466,-178.8893
165000000,-13.603266,-67.000526,-53.484875,-83.712875,-60.54427,7.5106091,-63.161907,106.14821,23.347517,169.74738,-3.8067958,-174.64854,-28.956741,-107.06817,-34.541924,123.19643,-22.702177,-24.700865,-37.521038,-147.79028,-1.3111391,-3.3425186,-37.19545,24.729815,-0.21415216,-54.33131,-13.532344,-167.66187,-23.273432,-154.08742,-8.1854582,175.38138
170000000,-13.610651,-67.712738,-53.874611,-98.731621,-57.056656,3.8131034,-57.871437,61.609138,23.331373,170.09619,-3.895015,-175.52921,-28.084517,-143.04294,-33.258701,115.95996,-23.023287,-24.319201,-37.008987,-147.98285,-1.3504982,-3.4032533,-37.226154,22.601929,-1.0161686,-54.511196,-13.033942,-170.14871,-23.61138,-156.05115,-8.1487789,175.17813
175000000,-13.601189,-68.38192,-51.665573,-58.521347,-57.212109,-19.4478,-54.349571,93.60804,23.331093,170.42358,-3.8979149,-176.0546,-28.901543,-112.12269,-33.971603,115.63468,-22.863894,-21.237516,-36.326084,-148.06119,-1.333577,-3.2475944,-36.327644,29.788948,-0.43201137,-50.654751,-12.708733,-169.1377,-26.294035,-164.46391,-8.0900602,172.05705
180000000,-13.71291,-69.302109,-56.923981,-45.022053,-57.160641,16.449253,-65.543442,98.790161,23.324408,170.63913,-4.0005193,-176.67174,-28.5648,-129.52013,-34.290169,108.59727,-22.099663,-24.331905,-36.605721,-151.26511,-1.3318676,-3.1798301,-36.419792,28.712231,0.036825243,-53.798237,-12.333784,-171.19438,-30.376251,-146.33595,-8.4270086,170.8008
185000000,-13.736259,-70.565605,-56.584206,-64.790611,-63.588017,-15.033455,-61.190296,84.050278,23.321293,170.98953,-4.0256767,-177.2056,-26.26722,-122.6813,-34.570248,103.62707,-21.940434,-25.2519,-35.773819,-151.76434,-1.3263912,-3.2055385,-35.74506,32.842251,0.34975055,-54.136375,-12.019911,-171.26051,-36.344872,-129.25116,-8.5605478,169.05072
190000000,-13.78476,-71.098961,-56.92038,-20.028261,-62.760647,-0.61682624,-63.370438,59.774982,23.314335,171.1414,-4.0675049,-177.7204,-25.213076,-117.51565,-33.969604,108.90446,-21.456078,-30.41539,-35.425285,-151.23247,-1.3125898,-3.2520423,-34.985489,30.846527,0.87986541,-59.269745,-11.467054,-174.61244,-32.253136,-62.615303,-8.9290648,168.84813
195000000,-13.78395,-72.180992,-59.162678,-23.732746,-61.381001,-70.732826,-58.285213,64.352074,23.316055,171.39963,-4.0899391,-178.31021,-26.279423,-130.06737,-34.128941,104.6189,-21.967505,-33.615238,-35.174183,-159.05579,-1.3029349,-3.1928468,-35.279922,29.926813,0.66626644,-63.04425,-11.394534,-177.0011,-27.684166,-55.178112,-8.9268837,168.64043
200000000,-13.826703,-72.822853,-57.553463,39.032585,-61.250004,-34.248795,-64.089821,64.988907,23.309328,171.63261,-4.1140366,-178.73611,-23.902248,-134.73586,-33.122601,99.907501,-22.138929,-33.533298,-35.686378,-161.22064,-1.2965136,-3.2828276,-35.472984,29.618364,0.28959483,-63.31324,-11.766001,-179.93701,-25.240116,-59.586788,-8.709713,168.74683
205000000,-13.822337,-74.226608,-61.679516,8.8999929,-61.698956,-18.671255,-58.109928,45.606937,23.321432,171.94502,-4.1600871,-179.31549,-27.058697,-118.83972,-33.43782,101.06742,-21.609177,-35.36203,-34.841492,-160.98146,-1.3014967,-3.2325149,-35.095558,33.918442,0.89903474,-64.875854,-11.388975,-179.03319,-23.983587,-43.807758,-8.8187981,166.89882
210000000,-13.896187,-75.545929,-57.368595,0.15872115,-57.757767,14.516283,-59.087822,66.135246,23.344011,172.04169,-4.1473703,-179.97704,-31.399555,-130.65857,-32.704926,98.454155,-21.966045,-40.969902,-34.910744,-161.19495,-1.2863044,-3.1783519,-34.508831,33.664021,0.7756983,-69.490334,-11.171303,-179.02272,-23.245911,-40.838566,-8.838048,164.64449
215000000,-13.86877,-76.00209,-59.835331,5.6343565,-56.329552,-73.98278,-57.865337,113.48541,23.318064,172.2281,-4.2194109,179.29858,-26.452435,-138.31166,-33.242931,94.005547,-22.181175,-39.707088,-34.449596,-165.0162,-1.2777715,-3.233398,-34.530346,32.290115,0.52908063,-69.997459,-10.743067,176.04533,-20.32872,-38.913609,-9.196517,165.60562
220000000,-13.860457,-77.068405,-54.937634,10.399213,-58.069107,-35.071068,-53.546505,75.627098,23.322929,172.48848,-4.2528849,178.95558,-27.10689,-117.38078,-32.743526,90.624771,-21.84074,-38.033543,-34.954517,-165.70786,-1.2717829,-3.1725717,-34.449982,36.405128,0.83439344,-67.939934,-11.112207,176.38144,-19.691147,-38.496525,-8.8456945,163.66211
225000000,-13.903668,-78.189621,-51.835716,48.367111,-56.678387,-23.696079,-55.664009,53.573254,23.341265,172.76515,-4.3033414,178.21149,-28.986158,-125.16135,-32.426907,84.367096,-21.448195,-40.134624,-34.566303,-165.33188,-1.2759926,-3.218883,-34.581612,35.101139,1.3165462,-69.240952,-10.888832,176.54013,-18.315847,-32.856236,-9.0116081,161.40611
230000000,-13.925232,-79.312592,-50.955803,39.879528,-60.30513,2.8703098,-60.625431,64.78923,23.355146,172.88106,-4.3524795,177.61719,-22.757435,-155.78003,-32.369526,84.896935,-20.966101,-43.775204,-34.089073,-163.95094,-1.2612162,-3.2450821,-33.849262,33.460144,1.6652046,-71.510147,-10.561462,175.56828,-16.743164,-34.445583,-9.1426115,159.96269
235000000,-13.90022,-80.596451,-49.68026,46.206959,-70.100334,86.633179,-54.062519,36.303268,23.369064,173.20869,-4.3947554,177.1881,-30.02404,-117.24538,-31.938255,81.376129,-20.970142,-45.422592,-33.832626,-168.99147,-1.2488573,-3.1070809,-33.792564,34.614296,1.9262813,-73.75943,-10.355296,174.12195,-16.186543,-33.129704,-9.2631626,159.29077
240000000,-13.867926,-81.59066,-49.696274,48.689217,-58.307537,-36.967983,-53.198696,65.834923,23.39151,173.36362,-4.4500418,176.86037,-24.067663,-137.61964,-31.062565,77.900711,-20.610748,-48.198639,-33.642136,-167.3862,-1.2452143,-3.2410855,-33.375114,36.235737,2.2305484,-75.984947,-10.175025,173.22664,-15.027104,-34.445038,-9.3019543,157.3672
245000000,-13.827451,-83.450867,-49.748257,57.665894,-58.482552,-109.87794,-57.765862,84.287804,23.410822,173.6073,-4.5102887,176.31844,-25.990166,-150.78908,-31.030287,75.501373,-20.382002,-50.858982,-33.445541,-169.50056,-1.2183723,-3.3034306,-33.356331,37.635876,2.5711641,-78.573349,-9.8955173,171.96419,-14.283689,-33.405903,-9.4562273,155.72343
250000000,-13.734706,-85.077171,-49.659843,38.752518,-76.230011,110.21988,-54.339767,65.586922,23.48328,173.75505,-4.5234089,175.71692,-22.925186,-156.83624,-30.644548,67.521538,-20.377607,-54.437805,-33.377796,-171.87564,-1.2464596,-3.3032815,-32.818279,39.88163,2.918113,-83.578026,-9.6151657,170.64972,-13.130072,-32.853958,-9.6342077,154.24849
255000000,-13.881144,-87.444176,-52.776745,-129.98523,-59.867775,-71.507614,-46.216045,-13.297318,23.452715,173.3497,-4.5902543,174.44862,-22.857185,-146.88788,-31.52614,76.897339,-20.375511,-49.796505,-34.225269,177.97195,-1.222091,-3.5288501,-33.024048,45.071045,2.3382413,-82.789764,-9.1428232,168.44014,-12.226038,-34.128067,-9.6858826,155.01733
260000000,-13.920747,-86.352417,-45.288479,53.13702,-64.500557,-59.754452,-53.352306,69.898033,23.436752,173.91821,-4.8526168,174.27274,-27.025547,-159.02644,-28.412971,72.557129,-20.145679,-54.66777,-32.501068,-178.21684,-1.1939675,-3.2927537,-33.509533,38.810154,3.0408556,-83.361206,-9.3356676,167.16858,-11.662926,-34.173069,-9.5499916,150.52078
265000000,-13.754195,-88.15094,-46.886513,22.463619,-60.119701,-87.03479,-51.145721,43.871052,23.519751,174.15305,-4.9106264,173.72282,-24.526512,-169.91774,-28.896358,62.555458,-19.465435,-60.399868,-33.317554,-173.59117,-1.2004936,-3.4170973,-31.301485,39.911404,3.6059489,-86.9785,-8.8801956,166.11848,-10.798694,-33.239388,-10.075516,147.5827
270000000,-13.810126,-91.537918,-49.044415,83.109268,-60.586567,-20.333035,-58.178646,-32.145645,23.581917,174.14569,-4.8957033,174.25201,-22.778208,-137.59174,-27.653284,40.90065,-19.273693,-66.445969,-30.252815,176.78773,-1.1815772,-3.4801526,-32.902744,30.366262,4.3805089,-91.686531,-8.9638071,165.25418,-9.9892225,-35.406067,-10.59799,143.00574
275000000,-13.880565,-93.689034,-44.320969,32.068989,-54.318481,-168.00128,-51.399891,14.528872,23.67169,173.81841,-5.2596726,172.80374,-24.085665,-131.32637,-27.701426,37.198116,-18.861641,-76.384628,-32.972687,-161.42786,-1.1773208,-3.6409907,-29.557697,33.273293,4.2543726,-102.5689,-8.974926,160.29736,-9.4667273,-36.735912,-11.017842,144.33698
280000000,-13.874838,-91.737648,-40.317341,-21.790024,-51.742649,175.33957,-42.327618,30.233013,23.586405,173.78662,-5.1918144,174.9865,-21.567381,-132.06192,-31.195108,20.576092,-21.346378,-71.055092,-30.610863,163.91156,-1.1502806,-3.4242814,-33.504414,37.822384,2.9604719,-100.36655,-8.5314684,165.96257,-8.7822809,-35.324947,-11.703115,145.75789
285000000,-13.545295,-100.7473,-42.219864,-157.88142,-61.619785,-173.43915,-40.394825,-48.165611,23.774124,174.24644,-5.0163527,171.48131,-26.494757,-159.61848,-34.449226,53.88752,-18.91152,-77.301765,-32.888172,-176.49066,-1.1186628,-3.6884778,-29.945988,36.335518,4.4304891,-106.10452,-7.4459615,163.4324,-7.7545228,-36.513447,-12.186588,145.97697
290000000,-15.869298,-97.170311,-44.953979,44.976479,-51.589317,-177.48286,-54.739021,-19.045626,23.650146,171.37007,-4.9564071,171.09604,-23.165068,-175.77092,-39.09856,-36.326305,-21.681364,-58.481438,-29.478083,-175.21858,-1.1123098,-3.9619956,-31.373285,20.413652,1.0808773,-87.58065,-7.2392912,157.49002,-7.5631146,-44.677006,-10.971203,156.99542
295000000,-14.605384,-92.139343,-42.126102,47.346802,-55.18227,143.8029,-62.011227,154.13824,23.525307,173.42233,-5.3678441,169.56618,-24.321199,-147.9843,-37.376244,133.42798,-18.783838,-63.886566,-28.852535,175.94994,-1.1130433,-3.77915,-31.172445,25.321657,4.448802,-90.977928,-6.2459345,158.67456,-7.3690782,-41.38047,-11.988276,145.84213
300000000,-14.632818,-94.991615,-35.878639,43.74226,-55.147469,-165.81531,-44.957188,128.19002,23.632139,173.76971,-5.7995272,170.37781,-23.441404,-167.98145,-31.385576,108.43221,-17.61985,-72.624031,-28.74822,-178.49698,-1.0786458,-3.9525235,-30.15283,20.392756,5.4949861,-97.519333,-5.7844067,152.92581,-6.6803231,-42.868649,-12.477989,151.11238
305000000,-14.11707,-95.467949,-41.815979,-10.443131,-51.734024,-177.84833,-44.806263,29.710894,23.615496,173.88733,-5.7492414,173.31409,-27.737465,-146.5322,-25.504261,62.576447,-17.984386,-86.960503,-28.589935,162.39307,-1.0949774,-4.086113,-32.710636,24.559977,5.6561308,-110.69327,-6.6093292,145.13145,-6.4540558,-43.317883,-11.349306,154.39153
310000000,-14.483524,-99.008446,-39.933979,15.180295,-54.907143,-169.74226,-46.743706,58.179218,23.724266,173.5583,-6.0355754,170.72023,-22.976702,-164.44168,-26.3218,74.753517,-17.943741,-83.056747,-28.145475,151.88264,-1.0606022,-4.0420699,-33.191845,31.231915,6.1259637,-107.39336,-6.2139049,144.88622,-5.7776728,-44.48262,-12.108279,150.59392
315000000,-14.888778,-97.736504,-42.717964,-13.625482,-50.007038,-171.18083,-44.758209,13.230545,23.616404,172.6819,-6.012341,171.05818,-22.599113,-168.07237,-27.561008,53.61132,-19.011568,-98.253273,-27.737024,155.01152,-1.0687685,-4.3690557,-33.564606,23.356348,5.063375,-121.87097,-6.0210876,142.08212,-5.3967013,-47.87664,-11.160488,157.95583
320000000,-14.889291,-98.749496,-41.335239,20.501705,-49.346691,-169.86179,-50.411755,52.689564,23.608023,173.02951,-6.4094386,173.01099,-22.127716,-171.42323,-24.491062,62.012054,-17.216103,-90.272278,-29.499802,156.799,-1.0422587,-4.2811842,-31.88106,34.398823,6.2604198,-116.09544,-6.0442386,139.1096,-5.2361751,-47.545994,-10.101405,149.60268
325000000,-14.559572,-96.931412,-45.03421,16.65468,-52.673477,178.88933,-46.216358,28.754063,23.531796,173.57124,-5.9188857,171.9391,-23.406418,-170.21013,-22.921688,42.140968,-17.584318,-97.281937,-29.533176,164.58116,-1.0338135,-4.2757502,-31.079546,36.364872,5.9841952,-122.67595,-5.9594374,137.40585,-4.7698388,-46.451359,-9.5113955,141.37291
330000000,-14.24643,-97.158607,-37.231503,5.8321986,-49.176903,-173.97034,-41.741226,44.805428,23.611202,174.0394,-6.5450292,169.26913,-18.694433,175.1129,-22.96792,36.141811,-16.860188,-99.19722,-27.347448,156.26613,-1.0004522,-4.4241099,-31.195787,34.846577,6.8210831,-122.54002,-5.0496292,136.91235,-4.117682,-49.447933,-10.366813,136.30173
335000000,-14.606769,-101.64074,-37.469143,37.688404,-47.848675,161.91376,-50.668167,56.544167,23.683584,173.93649,-7.005723,169.33797,-19.649359,178.10909,-23.083708,33.067894,-16.273779,-101.70112,-28.774763,143.9178,-1.001539,-4.7248712,-29.944273,40.559452,7.4853139,-128.75067,-4.408978,126.72376,-3.6989458,-51.573982,-10.000845,134.32863
340000000,-14.412039,-100.98908,-36.402271,3.2521141,-45.765697,162.25252,-43.250175,31.00766,23.70261,173.55629,-7.5634646,170.89987,-17.436604,173.24362,-22.635853,33.080456,-15.692094,-114.17459,-27.352261,135.83789,-1.0153147,-4.9030614,-30.398787,40.659077,8.2487698,-137.54033,-4.0824986,119.33202,-3.4447424,-55.624813,-10.29626,132.38429
345000000,-14.751143,-101.49312,-36.153942,10.791125,-45.92804,150.57672,-45.207439,42.371132,23.696117,173.52852,-7.7648621,175.33641,-19.877607,170.56422,-21.433952,28.643555,-15.566526,-127.87152,-26.7694,124.63022,-1.0380265,-5.0877361,-30.862242,43.379536,8.5543079,-149.71609,-4.0355721,107.08545,-3.5502756,-58.632401,-9.886466,130.7258
350000000,-14.215633,-104.09147,-38.447121,-8.8387194,-45.933544,150.34396,-42.488262,17.808201,23.738199,173.94519,-7.6189146,177.3931,-22.323689,155.76883,-19.29504,15.396955,-17.320295,-134.6776,-29.499767,118.41453,-1.0361974,-4.8840718,-29.189154,48.413158,7.141809,-157.11954,-6.0330315,101.93871,-3.8119447,-55.829464,-8.9424219,120.99369
355000000,-15.205961,-104.20076,-38.409565,25.714937,-47.025051,145.33076,-46.818817,1.2766125,23.68626,173.11909,-7.353251,176.84062,-18.739382,166.92296,-20.05312,0.96747708,-18.201609,-130.53166,-30.938231,113.22134,-1.0205698,-5.0808988,-28.073709,47.578411,6.4595661,-157.65677,-6.1657338,106.64433,-3.2648876,-56.092236,-9.4215622,113.50587
360000000,-14.727576,-103.78219,-39.298397,-0.33164328,-43.833138,138.15396,-44.106323,-1.3304213,23.662237,173.52213,-7.4238553,-178.90303,-20.929739,152.53839,-19.746189,-7.2613773,-17.555576,-145.49052,-29.200153,110.82322,-1.0392635,-4.9751759,-27.915689,44.490692,6.8089876,-166.54558,-6.1221576,92.027611,-3.4994903,-58.84988,-9.5158081,104.93351
365000000,-14.383953,-103.37617,-37.362457,-6.675848,-43.928608,135.70988,-42.298012,1.0810816,23.684065,173.92354,-7.2918935,-177.66667,-19.685246,124.71758,-18.652248,-12.801493,-18.254093,-146.38289,-31.403641,109.48685,-1.0068101,-5.0624213,-27.209276,42.645473,6.2674952,-170.41731,-7.1504712,92.496201,-3.4285862,-56.85696,-9.547369,99.641243
370000000,-14.431945,-105.53769,-41.208775,0.6729396,-43.095364,132.28053,-42.507957,-32.605545,23.708822,173.91788,-7.1404033,-174.82761,-20.087765,141.71072,-17.814919,-27.42849,-19.227015,-156.77005,-30.697887,100.51254,-1.0124892,-5.0949564,-26.610363,42.198624,5.7874599,-177.39023,-8.5840178,83.535019,-3.3625369,-55.939358,-9.5218639,84.624924
